<Qucs Dataset 0.0.19>
<indep time 100>
  +1.00000000000000000000e+000
  +1.03030303030303027612e+000
  +1.06060606060606055223e+000
  +1.09090909090909082835e+000
  +1.12121212121212110446e+000
  +1.15151515151515160262e+000
  +1.18181818181818187874e+000
  +1.21212121212121215486e+000
  +1.24242424242424243097e+000
  +1.27272727272727270709e+000
  +1.30303030303030298320e+000
  +1.33333333333333325932e+000
  +1.36363636363636353543e+000
  +1.39393939393939403359e+000
  +1.42424242424242430971e+000
  +1.45454545454545458583e+000
  +1.48484848484848486194e+000
  +1.51515151515151513806e+000
  +1.54545454545454541417e+000
  +1.57575757575757569029e+000
  +1.60606060606060596641e+000
  +1.63636363636363646457e+000
  +1.66666666666666674068e+000
  +1.69696969696969701680e+000
  +1.72727272727272729291e+000
  +1.75757575757575756903e+000
  +1.78787878787878784514e+000
  +1.81818181818181812126e+000
  +1.84848484848484839738e+000
  +1.87878787878787889554e+000
  +1.90909090909090917165e+000
  +1.93939393939393944777e+000
  +1.96969696969696972388e+000
  +2.00000000000000000000e+000
  +2.03030303030303027612e+000
  +2.06060606060606055223e+000
  +2.09090909090909082835e+000
  +2.12121212121212110446e+000
  +2.15151515151515138058e+000
  +2.18181818181818165669e+000
  +2.21212121212121193281e+000
  +2.24242424242424220893e+000
  +2.27272727272727292913e+000
  +2.30303030303030320525e+000
  +2.33333333333333348136e+000
  +2.36363636363636375748e+000
  +2.39393939393939403359e+000
  +2.42424242424242430971e+000
  +2.45454545454545458583e+000
  +2.48484848484848486194e+000
  +2.51515151515151513806e+000
  +2.54545454545454541417e+000
  +2.57575757575757569029e+000
  +2.60606060606060596641e+000
  +2.63636363636363624252e+000
  +2.66666666666666651864e+000
  +2.69696969696969679475e+000
  +2.72727272727272707087e+000
  +2.75757575757575779107e+000
  +2.78787878787878806719e+000
  +2.81818181818181834331e+000
  +2.84848484848484861942e+000
  +2.87878787878787889554e+000
  +2.90909090909090917165e+000
  +2.93939393939393944777e+000
  +2.96969696969696972388e+000
  +3.00000000000000000000e+000
  +3.03030303030303027612e+000
  +3.06060606060606055223e+000
  +3.09090909090909082835e+000
  +3.12121212121212110446e+000
  +3.15151515151515138058e+000
  +3.18181818181818165669e+000
  +3.21212121212121193281e+000
  +3.24242424242424220893e+000
  +3.27272727272727292913e+000
  +3.30303030303030320525e+000
  +3.33333333333333348136e+000
  +3.36363636363636375748e+000
  +3.39393939393939403359e+000
  +3.42424242424242430971e+000
  +3.45454545454545458583e+000
  +3.48484848484848486194e+000
  +3.51515151515151513806e+000
  +3.54545454545454541417e+000
  +3.57575757575757569029e+000
  +3.60606060606060596641e+000
  +3.63636363636363624252e+000
  +3.66666666666666651864e+000
  +3.69696969696969679475e+000
  +3.72727272727272707087e+000
  +3.75757575757575779107e+000
  +3.78787878787878806719e+000
  +3.81818181818181834331e+000
  +3.84848484848484861942e+000
  +3.87878787878787889554e+000
  +3.90909090909090917165e+000
  +3.93939393939393944777e+000
  +3.96969696969696972388e+000
  +4.00000000000000000000e+000
</indep>
<dep V1.It time>
  +0.00000000000000000000e+000
  +0.00000000000000000000e+000
  +0.00000000000000000000e+000
  +0.00000000000000000000e+000
  +0.00000000000000000000e+000
  +0.00000000000000000000e+000
  +0.00000000000000000000e+000
  +0.00000000000000000000e+000
  +0.00000000000000000000e+000
  +0.00000000000000000000e+000
  +0.00000000000000000000e+000
  +0.00000000000000000000e+000
  +0.00000000000000000000e+000
  +0.00000000000000000000e+000
  +0.00000000000000000000e+000
  +0.00000000000000000000e+000
  +0.00000000000000000000e+000
  +0.00000000000000000000e+000
  +0.00000000000000000000e+000
  +0.00000000000000000000e+000
  +0.00000000000000000000e+000
  +0.00000000000000000000e+000
  +0.00000000000000000000e+000
  +0.00000000000000000000e+000
  +0.00000000000000000000e+000
  +0.00000000000000000000e+000
  +0.00000000000000000000e+000
  +0.00000000000000000000e+000
  +0.00000000000000000000e+000
  +0.00000000000000000000e+000
  +0.00000000000000000000e+000
  +0.00000000000000000000e+000
  +0.00000000000000000000e+000
  +0.00000000000000000000e+000
  +0.00000000000000000000e+000
  +0.00000000000000000000e+000
  +0.00000000000000000000e+000
  +0.00000000000000000000e+000
  +0.00000000000000000000e+000
  +0.00000000000000000000e+000
  +0.00000000000000000000e+000
  +0.00000000000000000000e+000
  +0.00000000000000000000e+000
  +0.00000000000000000000e+000
  +0.00000000000000000000e+000
  +0.00000000000000000000e+000
  +0.00000000000000000000e+000
  +0.00000000000000000000e+000
  +0.00000000000000000000e+000
  +0.00000000000000000000e+000
  +0.00000000000000000000e+000
  +0.00000000000000000000e+000
  +0.00000000000000000000e+000
  +0.00000000000000000000e+000
  +0.00000000000000000000e+000
  +0.00000000000000000000e+000
  +0.00000000000000000000e+000
  +0.00000000000000000000e+000
  +0.00000000000000000000e+000
  +0.00000000000000000000e+000
  +0.00000000000000000000e+000
  +0.00000000000000000000e+000
  +0.00000000000000000000e+000
  +0.00000000000000000000e+000
  +0.00000000000000000000e+000
  +0.00000000000000000000e+000
  +0.00000000000000000000e+000
  +0.00000000000000000000e+000
  +0.00000000000000000000e+000
  +0.00000000000000000000e+000
  +0.00000000000000000000e+000
  +0.00000000000000000000e+000
  +0.00000000000000000000e+000
  +0.00000000000000000000e+000
  +0.00000000000000000000e+000
  +0.00000000000000000000e+000
  +0.00000000000000000000e+000
  +0.00000000000000000000e+000
  +0.00000000000000000000e+000
  +0.00000000000000000000e+000
  +0.00000000000000000000e+000
  +0.00000000000000000000e+000
  +0.00000000000000000000e+000
  +0.00000000000000000000e+000
  +0.00000000000000000000e+000
  +0.00000000000000000000e+000
  +0.00000000000000000000e+000
  +0.00000000000000000000e+000
  +0.00000000000000000000e+000
  +0.00000000000000000000e+000
  +0.00000000000000000000e+000
  +0.00000000000000000000e+000
  +0.00000000000000000000e+000
  +0.00000000000000000000e+000
  +0.00000000000000000000e+000
  +0.00000000000000000000e+000
  +0.00000000000000000000e+000
  +0.00000000000000000000e+000
  +0.00000000000000000000e+000
  +0.00000000000000000000e+000
</dep>
<dep _net0.Vt time>
  -1.95937016611580361314e-015
  +1.51400995488328105054e+000
  +2.97329964528261436740e+000
  +4.32512653964477689073e+000
  +5.52063209185688830161e+000
  +6.51660761640268848538e+000
  +7.27705596283614664088e+000
  +7.77449254658833410758e+000
  +7.99093871346406370293e+000
  +7.91857153504746236194e+000
  +7.56000654971734853405e+000
  +6.92820323027551321360e+000
  +6.04599659483407503302e+000
  +4.94527188976484488592e+000
  +3.66581217381927970678e+000
  +2.25386045473143914464e+000
  +7.60448346433468480576e-001
  -7.60448346433462596394e-001
  -2.25386045473143337148e+000
  -3.66581217381927437771e+000
  -4.94527188976484044503e+000
  -6.04599659483407059213e+000
  -6.92820323027550966088e+000
  -7.56000654971734675769e+000
  -7.91857153504746236194e+000
  -7.99093871346406370293e+000
  -7.77449254658833499576e+000
  -7.27705596283615196995e+000
  -6.51660761640268759720e+000
  -5.52063209185689274250e+000
  -4.32512653964478133162e+000
  -2.97329964528262635781e+000
  -1.51400995488327994032e+000
  -3.91874033223160722628e-015
  +1.51400995488327216876e+000
  +2.97329964528261925238e+000
  +4.32512653964477511437e+000
  +5.52063209185688741343e+000
  +6.51660761640267516270e+000
  +7.27705596283614308817e+000
  +7.77449254658832966669e+000
  +7.99093871346406281475e+000
  +7.91857153504746147377e+000
  +7.56000654971734409315e+000
  +6.92820323027550699635e+000
  +6.04599659483406703941e+000
  +4.94527188976484666227e+000
  +3.66581217381928103904e+000
  +2.25386045473144092099e+000
  +7.60448346433470478978e-001
  -7.60448346433460709015e-001
  -2.25386045473143159512e+000
  -3.66581217381927260135e+000
  -4.94527188976483866867e+000
  -6.04599659483405105220e+000
  -6.92820323027550166728e+000
  -7.56000654971734586951e+000
  -7.91857153504745792105e+000
  -7.99093871346406370293e+000
  -7.77449254658833588394e+000
  -7.27705596283614752906e+000
  -6.51660761640268049177e+000
  -5.52063209185690428882e+000
  -4.32512653964478310797e+000
  -2.97329964528261525558e+000
  -1.51400995488329570549e+000
  -5.87811049834741083941e-015
  +1.51400995488328415917e+000
  +2.97329964528260415335e+000
  +4.32512653964477333801e+000
  +5.52063209185689629521e+000
  +6.51660761640267427452e+000
  +7.27705596283614219999e+000
  +7.77449254658833321940e+000
  +7.99093871346406281475e+000
  +7.91857153504745969741e+000
  +7.56000654971734942222e+000
  +6.92820323027550788453e+000
  +6.04599659483405904581e+000
  +4.94527188976484843863e+000
  +3.66581217381928281540e+000
  +2.25386045473142937468e+000
  +7.60448346433472366357e-001
  -7.60448346433458710614e-001
  -2.25386045473141605200e+000
  -3.66581217381927082499e+000
  -4.94527188976483778049e+000
  -6.04599659483405016402e+000
  -6.92820323027550077910e+000
  -7.56000654971734498133e+000
  -7.91857153504745792105e+000
  -7.99093871346406370293e+000
  -7.77449254658833588394e+000
  -7.27705596283614752906e+000
  -6.51660761640268226813e+000
  -5.52063209185690606517e+000
  -4.32512653964478488433e+000
  -2.97329964528261703194e+000
  -1.51400995488329770389e+000
  -7.83748066446321445255e-015
</dep>
<dep Vx.Vt time>
  +5.99999513657924321564e+000
  +5.99999349518324631703e+000
  +5.99999035894194499008e+000
  +5.99998257730800066412e+000
  +5.99993911939694157809e+000
  -5.99999766865693828777e+000
  -5.99999780218552913880e+000
  -5.99999788155496283082e+000
  -5.99999791432827755955e+000
  -5.99999790348418926555e+000
  -5.99999784804635538649e+000
  -5.99999774288000597977e+000
  -5.99999757757637386391e+000
  -5.99999733396225387594e+000
  -5.99999698105968981565e+000
  -5.99999646462239866196e+000
  -5.99999568364137747523e+000
  -5.99999443071968130425e+000
  -5.99999221049797792915e+000
  -5.99998749858222613085e+000
  -5.99997233290165166153e+000
  +5.99999757757637386391e+000
  +5.99999774288000597977e+000
  +5.99999784804635538649e+000
  +5.99999790348418926555e+000
  +5.99999791432827755955e+000
  +5.99999788155496283082e+000
  +5.99999780218552913880e+000
  +5.99999766865693828777e+000
  +5.99999746710883030687e+000
  +5.99999717383522845893e+000
  +5.99999674807343730265e+000
  +5.99999611651885800256e+000
  +5.99999513657924321564e+000
  +5.99999349518324631703e+000
  +5.99999035894194410190e+000
  +5.99998257730799977594e+000
  +5.99993911939694246627e+000
  -5.99999766865693828777e+000
  -5.99999780218552913880e+000
  -5.99999788155496283082e+000
  -5.99999791432827755955e+000
  -5.99999790348418926555e+000
  -5.99999784804635538649e+000
  -5.99999774288000597977e+000
  -5.99999757757637386391e+000
  -5.99999733396225387594e+000
  -5.99999698105968981565e+000
  -5.99999646462239866196e+000
  -5.99999568364137747523e+000
  -5.99999443071968130425e+000
  -5.99999221049797792915e+000
  -5.99998749858222613085e+000
  -5.99997233290165166153e+000
  +5.99999757757637386391e+000
  +5.99999774288000597977e+000
  +5.99999784804635538649e+000
  +5.99999790348418926555e+000
  +5.99999791432827755955e+000
  +5.99999788155496283082e+000
  +5.99999780218552913880e+000
  +5.99999766865693828777e+000
  +5.99999746710883030687e+000
  +5.99999717383522845893e+000
  +5.99999674807343730265e+000
  +5.99999611651885800256e+000
  +5.99999513657924321564e+000
  +5.99999349518324631703e+000
  +5.99999035894194410190e+000
  +5.99998257730799977594e+000
  +5.99993911939694246627e+000
  -5.99999766865693828777e+000
  -5.99999780218552913880e+000
  -5.99999788155496283082e+000
  -5.99999791432827755955e+000
  -5.99999790348418926555e+000
  -5.99999784804635538649e+000
  -5.99999774288000597977e+000
  -5.99999757757637386391e+000
  -5.99999733396225387594e+000
  -5.99999698105968981565e+000
  -5.99999646462239866196e+000
  -5.99999568364137747523e+000
  -5.99999443071968130425e+000
  -5.99999221049797792915e+000
  -5.99998749858222613085e+000
  -5.99997233290165166153e+000
  +5.99999757757637386391e+000
  +5.99999774288000597977e+000
  +5.99999784804635538649e+000
  +5.99999790348418926555e+000
  +5.99999791432827755955e+000
  +5.99999788155496283082e+000
  +5.99999780218552913880e+000
  +5.99999766865693828777e+000
  +5.99999746710883030687e+000
  +5.99999717383522845893e+000
  +5.99999674807343730265e+000
  +5.99999611651885800256e+000
  +5.99999513657924321564e+000
</dep>
<dep Vo.Vt time>
  +1.19999902731584864313e+001
  +1.19999869903664926341e+001
  +1.19999807178838882038e+001
  +1.19999651546159995519e+001
  +1.19998782387938849325e+001
  -1.19999953373138765755e+001
  -1.19999956043710600539e+001
  -1.19999957631099256616e+001
  -1.19999958286565568955e+001
  -1.19999958069683785311e+001
  -1.19999956960927107730e+001
  -1.19999954857600137359e+001
  -1.19999951551527477278e+001
  -1.19999946679245077519e+001
  -1.19999939621193796313e+001
  -1.19999929292447955476e+001
  -1.19999913672827531741e+001
  -1.19999888614393626085e+001
  -1.19999844209959558583e+001
  -1.19999749971644540381e+001
  -1.19999446658033050994e+001
  +1.19999951551527477278e+001
  +1.19999954857600137359e+001
  +1.19999956960927107730e+001
  +1.19999958069683785311e+001
  +1.19999958286565568955e+001
  +1.19999957631099256616e+001
  +1.19999956043710600539e+001
  +1.19999953373138765755e+001
  +1.19999949342176606137e+001
  +1.19999943476704586942e+001
  +1.19999934961468763817e+001
  +1.19999922330377142288e+001
  +1.19999902731584864313e+001
  +1.19999869903664926341e+001
  +1.19999807178838882038e+001
  +1.19999651546160013282e+001
  +1.19998782387938849325e+001
  -1.19999953373138765755e+001
  -1.19999956043710600539e+001
  -1.19999957631099256616e+001
  -1.19999958286565568955e+001
  -1.19999958069683785311e+001
  -1.19999956960927107730e+001
  -1.19999954857600137359e+001
  -1.19999951551527477278e+001
  -1.19999946679245077519e+001
  -1.19999939621193796313e+001
  -1.19999929292447955476e+001
  -1.19999913672827531741e+001
  -1.19999888614393626085e+001
  -1.19999844209959558583e+001
  -1.19999749971644540381e+001
  -1.19999446658033050994e+001
  +1.19999951551527477278e+001
  +1.19999954857600137359e+001
  +1.19999956960927107730e+001
  +1.19999958069683785311e+001
  +1.19999958286565568955e+001
  +1.19999957631099256616e+001
  +1.19999956043710600539e+001
  +1.19999953373138765755e+001
  +1.19999949342176606137e+001
  +1.19999943476704586942e+001
  +1.19999934961468763817e+001
  +1.19999922330377142288e+001
  +1.19999902731584864313e+001
  +1.19999869903664926341e+001
  +1.19999807178838882038e+001
  +1.19999651546160013282e+001
  +1.19998782387938849325e+001
  -1.19999953373138765755e+001
  -1.19999956043710600539e+001
  -1.19999957631099256616e+001
  -1.19999958286565568955e+001
  -1.19999958069683785311e+001
  -1.19999956960927107730e+001
  -1.19999954857600137359e+001
  -1.19999951551527477278e+001
  -1.19999946679245077519e+001
  -1.19999939621193796313e+001
  -1.19999929292447955476e+001
  -1.19999913672827531741e+001
  -1.19999888614393626085e+001
  -1.19999844209959558583e+001
  -1.19999749971644540381e+001
  -1.19999446658033050994e+001
  +1.19999951551527477278e+001
  +1.19999954857600137359e+001
  +1.19999956960927107730e+001
  +1.19999958069683785311e+001
  +1.19999958286565568955e+001
  +1.19999957631099256616e+001
  +1.19999956043710600539e+001
  +1.19999953373138765755e+001
  +1.19999949342176606137e+001
  +1.19999943476704586942e+001
  +1.19999934961468763817e+001
  +1.19999922330377142288e+001
  +1.19999902731584864313e+001
</dep>
<indep V1.I 1>
  +0.00000000000000000000e+000
</indep>
<indep _net0.V 1>
  +0.00000000000000000000e+000
</indep>
<indep Vx.V 1>
  +0.00000000000000000000e+000
</indep>
<indep Vo.V 1>
  +0.00000000000000000000e+000
</indep>
