<Qucs Dataset 0.0.19>
<indep Versus.0001 21>
  -0.00000000000000000000e+000
  -9.99999846203260212008e-001
  -1.99999976929739853304e+000
  -2.99999969240074904064e+000
  -3.99999961550072757888e+000
  -4.99999953860070611711e+000
  -5.99999946170068554352e+000
  -6.99999938480066408175e+000
  -7.99999930790064261998e+000
  -8.99999923100062204639e+000
  -9.99999915410059969645e+000
  -1.09999990772005791229e+001
  -1.19999990003005585493e+001
  -1.29999989234005361993e+001
  -1.39999988465005156257e+001
  -1.49999987696004932758e+001
  -1.59999986927004727022e+001
  -1.69999986158004503523e+001
  -1.79999985389004315550e+001
  -1.89999984620004092051e+001
  -1.99999983851003868551e+001
</indep>
<indep v1 21>
  +0.00000000000000000000e+000
  +1.00000000000000000000e+000
  +2.00000000000000000000e+000
  +3.00000000000000000000e+000
  +4.00000000000000000000e+000
  +5.00000000000000000000e+000
  +6.00000000000000000000e+000
  +7.00000000000000000000e+000
  +8.00000000000000000000e+000
  +9.00000000000000000000e+000
  +1.00000000000000000000e+001
  +1.10000000000000000000e+001
  +1.20000000000000000000e+001
  +1.30000000000000000000e+001
  +1.40000000000000000000e+001
  +1.50000000000000000000e+001
  +1.60000000000000000000e+001
  +1.70000000000000000000e+001
  +1.80000000000000000000e+001
  +1.90000000000000000000e+001
  +2.00000000000000000000e+001
</indep>
<dep Curva Versus.0001>
  +0.00000000000000000000e+000
  -1.53796739763707500705e-007
  -2.30702601504237740525e-007
  -3.07599251118603787669e-007
  -3.84499272349923645365e-007
  -4.61399293581031638945e-007
  -5.38299314812139685464e-007
  -6.15199336043247784923e-007
  -6.92099357274355778503e-007
  -7.68999378505463772082e-007
  -8.45899399736571871541e-007
  -9.22799420967679865121e-007
  -9.99699442198787858701e-007
  -1.07659946342989595816e-006
  -1.15349948466100405762e-006
  -1.23039950589211194532e-006
  -1.30729952712322004478e-006
  -1.38419954835432814424e-006
  -1.46109956958543624370e-006
  -1.53799959081654413140e-006
  -1.61489961204765223086e-006
</dep>
<dep Id v1>
  +0.00000000000000000000e+000
  -1.53796739763707500705e-007
  -2.30702601504237740525e-007
  -3.07599251118603787669e-007
  -3.84499272349923645365e-007
  -4.61399293581031638945e-007
  -5.38299314812139685464e-007
  -6.15199336043247784923e-007
  -6.92099357274355778503e-007
  -7.68999378505463772082e-007
  -8.45899399736571871541e-007
  -9.22799420967679865121e-007
  -9.99699442198787858701e-007
  -1.07659946342989595816e-006
  -1.15349948466100405762e-006
  -1.23039950589211194532e-006
  -1.30729952712322004478e-006
  -1.38419954835432814424e-006
  -1.46109956958543624370e-006
  -1.53799959081654413140e-006
  -1.61489961204765223086e-006
</dep>
<dep Vd v1>
  -0.00000000000000000000e+000
  -9.99999846203260212008e-001
  -1.99999976929739853304e+000
  -2.99999969240074904064e+000
  -3.99999961550072757888e+000
  -4.99999953860070611711e+000
  -5.99999946170068554352e+000
  -6.99999938480066408175e+000
  -7.99999930790064261998e+000
  -8.99999923100062204639e+000
  -9.99999915410059969645e+000
  -1.09999990772005791229e+001
  -1.19999990003005585493e+001
  -1.29999989234005361993e+001
  -1.39999988465005156257e+001
  -1.49999987696004932758e+001
  -1.59999986927004727022e+001
  -1.69999986158004503523e+001
  -1.79999985389004315550e+001
  -1.89999984620004092051e+001
  -1.99999983851003868551e+001
</dep>
<dep Vd.V v1>
  -0.00000000000000000000e+000
  -9.99999846203260212008e-001
  -1.99999976929739853304e+000
  -2.99999969240074904064e+000
  -3.99999961550072757888e+000
  -4.99999953860070611711e+000
  -5.99999946170068554352e+000
  -6.99999938480066408175e+000
  -7.99999930790064261998e+000
  -8.99999923100062204639e+000
  -9.99999915410059969645e+000
  -1.09999990772005791229e+001
  -1.19999990003005585493e+001
  -1.29999989234005361993e+001
  -1.39999988465005156257e+001
  -1.49999987696004932758e+001
  -1.59999986927004727022e+001
  -1.69999986158004503523e+001
  -1.79999985389004315550e+001
  -1.89999984620004092051e+001
  -1.99999983851003868551e+001
</dep>
<dep V1.I v1>
  -0.00000000000000000000e+000
  -1.53796739763707489332e-010
  -2.30702601504237731633e-010
  -3.07599251118603809176e-010
  -3.84499272349923620136e-010
  -4.61399293581031621160e-010
  -5.38299314812139673884e-010
  -6.15199336043247778306e-010
  -6.92099357274355779330e-010
  -7.68999378505463780354e-010
  -8.45899399736571884776e-010
  -9.22799420967679885801e-010
  -9.99699442198787886825e-010
  -1.07659946342989599125e-009
  -1.15349948466100409567e-009
  -1.23039950589211199330e-009
  -1.30729952712322009772e-009
  -1.38419954835432820214e-009
  -1.46109956958543630656e-009
  -1.53799959081654420419e-009
  -1.61489961204765230861e-009
</dep>
<dep Id.I v1>
  +0.00000000000000000000e+000
  -1.53796739763707489332e-010
  -2.30702601504237731633e-010
  -3.07599251118603809176e-010
  -3.84499272349923620136e-010
  -4.61399293581031621160e-010
  -5.38299314812139673884e-010
  -6.15199336043247778306e-010
  -6.92099357274355779330e-010
  -7.68999378505463780354e-010
  -8.45899399736571884776e-010
  -9.22799420967679885801e-010
  -9.99699442198787886825e-010
  -1.07659946342989599125e-009
  -1.15349948466100409567e-009
  -1.23039950589211199330e-009
  -1.30729952712322009772e-009
  -1.38419954835432820214e-009
  -1.46109956958543630656e-009
  -1.53799959081654420419e-009
  -1.61489961204765230861e-009
</dep>
<dep _net1.V v1>
  -0.00000000000000000000e+000
  -9.99999846203260212008e-001
  -1.99999976929739853304e+000
  -2.99999969240074904064e+000
  -3.99999961550072757888e+000
  -4.99999953860070611711e+000
  -5.99999946170068554352e+000
  -6.99999938480066408175e+000
  -7.99999930790064261998e+000
  -8.99999923100062204639e+000
  -9.99999915410059969645e+000
  -1.09999990772005791229e+001
  -1.19999990003005585493e+001
  -1.29999989234005361993e+001
  -1.39999988465005156257e+001
  -1.49999987696004932758e+001
  -1.59999986927004727022e+001
  -1.69999986158004503523e+001
  -1.79999985389004315550e+001
  -1.89999984620004092051e+001
  -1.99999983851003868551e+001
</dep>
<dep _net0.V v1>
  +0.00000000000000000000e+000
  -1.00000000000000000000e+000
  -2.00000000000000000000e+000
  -3.00000000000000000000e+000
  -4.00000000000000000000e+000
  -5.00000000000000000000e+000
  -6.00000000000000000000e+000
  -7.00000000000000000000e+000
  -8.00000000000000000000e+000
  -9.00000000000000000000e+000
  -1.00000000000000000000e+001
  -1.10000000000000000000e+001
  -1.20000000000000000000e+001
  -1.30000000000000000000e+001
  -1.40000000000000000000e+001
  -1.50000000000000000000e+001
  -1.60000000000000000000e+001
  -1.70000000000000000000e+001
  -1.80000000000000000000e+001
  -1.90000000000000000000e+001
  -2.00000000000000000000e+001
</dep>
<dep _net2.V v1>
  +0.00000000000000000000e+000
  -1.00000000000000000000e+000
  -2.00000000000000000000e+000
  -3.00000000000000000000e+000
  -4.00000000000000000000e+000
  -5.00000000000000000000e+000
  -6.00000000000000000000e+000
  -7.00000000000000000000e+000
  -8.00000000000000000000e+000
  -9.00000000000000000000e+000
  -1.00000000000000000000e+001
  -1.10000000000000000000e+001
  -1.20000000000000000000e+001
  -1.30000000000000000000e+001
  -1.40000000000000000000e+001
  -1.50000000000000000000e+001
  -1.60000000000000000000e+001
  -1.70000000000000000000e+001
  -1.80000000000000000000e+001
  -1.90000000000000000000e+001
  -2.00000000000000000000e+001
</dep>
