<Qucs Dataset 0.0.19>
<indep Versus.0001 101>
  +0.00000000000000000000e+000
  +1.99984122551612686358e-001
  +3.96946418815575519101e-001
  +5.19567511593520325874e-001
  +5.60479124900813419075e-001
  +5.81412698198380151204e-001
  +5.95214710761317378207e-001
  +6.05452432923747729809e-001
  +6.13569348829945293566e-001
  +6.20284931464004207768e-001
  +6.26007659548460049237e-001
  +6.30991051413821613103e-001
  +6.35402987056770229835e-001
  +6.39360255082799366910e-001
  +6.42947313519297902751e-001
  +6.46227181551842555507e-001
  +6.49248110152327750910e-001
  +6.52047850497872394371e-001
  +6.54656487024908750882e-001
  +6.57098377025237545546e-001
  +6.59393514392689672476e-001
  +6.61558510913916486551e-001
  +6.63607316817418357857e-001
  +6.65551759424356070838e-001
  +6.67401952291968081354e-001
  +6.69166610458416522000e-001
  +6.70853296485790617787e-001
  +6.72468614744818338202e-001
  +6.74018366465822693634e-001
  +6.75507674685328018960e-001
  +6.76941085832981293002e-001
  +6.78322653006122155972e-001
  +6.79656004751428288735e-001
  +6.80944402276326576917e-001
  +6.82190787347405458441e-001
  +6.83397822636384710826e-001
  +6.84567925897625051412e-001
  +6.85703299074471028796e-001
  +6.86805953210702813116e-001
  +6.87877729871708920584e-001
  +6.88920319645544232401e-001
  +6.89935278188886003115e-001
  +6.90924040198270139612e-001
  +6.91887931620093321605e-001
  +6.92828180359217449258e-001
  +6.93745925702307975058e-001
  +6.94642226636362880576e-001
  +6.95518069214295375779e-001
  +6.96374373095689391810e-001
  +6.97211997370852376577e-001
  +6.98031745760415600621e-001
  +6.98834371269261400705e-001
  +6.99620580361648425338e-001
  +7.00391036715887094211e-001
  +7.01146364607971084304e-001
  +7.01887151967497291416e-001
  +7.02613953143139902124e-001
  +7.03327291410186905551e-001
  +7.04027661248473046740e-001
  +7.04715530415402580111e-001
  +7.05391341835943763705e-001
  +7.06055515328431249067e-001
  +7.06708449183137465965e-001
  +7.07350521608381188621e-001
  +7.07982092057290124387e-001
  +7.08603502446831789996e-001
  +7.09215078279424093743e-001
  +7.09817129676379110492e-001
  +7.10409952331261473901e-001
  +7.10993828390590998367e-001
  +7.11569027268378784257e-001
  +7.12135806400397419758e-001
  +7.12694411943394889875e-001
  +7.13245079424101091625e-001
  +7.13788034342222710293e-001
  +7.14323492731277265300e-001
  +7.14851661680822481060e-001
  +7.15372739823103898082e-001
  +7.15886917787174503758e-001
  +7.16394378622848715388e-001
  +7.16895298197005925722e-001
  +7.17389845564357364616e-001
  +7.17878183314560769368e-001
  +7.18360467897563470530e-001
  +7.18836849928685239774e-001
  +7.19307474475063046704e-001
  +7.19772481324665203140e-001
  +7.20232005239263339824e-001
  +7.20686176192404603924e-001
  +7.21135119593467099897e-001
  +7.21578956498782120299e-001
  +7.22017803810718894475e-001
  +7.22451774465448726126e-001
  +7.22880977610278585566e-001
  +7.23305518771197752947e-001
  +7.23725500011222822039e-001
  +7.24141020080218078547e-001
  +7.24552174556669981165e-001
  +7.24959055982019595632e-001
  +7.25361753987891932915e-001
  +7.25760355416803060180e-001
</indep>
<indep v1 101>
  +0.00000000000000000000e+000
  +2.00000000000000011102e-001
  +4.00000000000000022204e-001
  +5.99999999999999977796e-001
  +8.00000000000000044409e-001
  +1.00000000000000000000e+000
  +1.19999999999999995559e+000
  +1.39999999999999991118e+000
  +1.60000000000000008882e+000
  +1.80000000000000004441e+000
  +2.00000000000000000000e+000
  +2.20000000000000017764e+000
  +2.39999999999999991118e+000
  +2.60000000000000008882e+000
  +2.79999999999999982236e+000
  +3.00000000000000000000e+000
  +3.20000000000000017764e+000
  +3.39999999999999991118e+000
  +3.60000000000000008882e+000
  +3.79999999999999982236e+000
  +4.00000000000000000000e+000
  +4.20000000000000017764e+000
  +4.40000000000000035527e+000
  +4.59999999999999964473e+000
  +4.79999999999999982236e+000
  +5.00000000000000000000e+000
  +5.20000000000000017764e+000
  +5.40000000000000035527e+000
  +5.59999999999999964473e+000
  +5.79999999999999982236e+000
  +6.00000000000000000000e+000
  +6.20000000000000017764e+000
  +6.40000000000000035527e+000
  +6.59999999999999964473e+000
  +6.79999999999999982236e+000
  +7.00000000000000000000e+000
  +7.20000000000000017764e+000
  +7.40000000000000035527e+000
  +7.59999999999999964473e+000
  +7.79999999999999982236e+000
  +8.00000000000000000000e+000
  +8.19999999999999928946e+000
  +8.40000000000000035527e+000
  +8.59999999999999964473e+000
  +8.80000000000000071054e+000
  +9.00000000000000000000e+000
  +9.19999999999999928946e+000
  +9.40000000000000035527e+000
  +9.59999999999999964473e+000
  +9.80000000000000071054e+000
  +1.00000000000000000000e+001
  +1.01999999999999992895e+001
  +1.04000000000000003553e+001
  +1.05999999999999996447e+001
  +1.08000000000000007105e+001
  +1.10000000000000000000e+001
  +1.11999999999999992895e+001
  +1.14000000000000003553e+001
  +1.15999999999999996447e+001
  +1.18000000000000007105e+001
  +1.20000000000000000000e+001
  +1.21999999999999992895e+001
  +1.24000000000000003553e+001
  +1.25999999999999996447e+001
  +1.28000000000000007105e+001
  +1.30000000000000000000e+001
  +1.31999999999999992895e+001
  +1.34000000000000003553e+001
  +1.35999999999999996447e+001
  +1.38000000000000007105e+001
  +1.40000000000000000000e+001
  +1.41999999999999992895e+001
  +1.44000000000000003553e+001
  +1.45999999999999996447e+001
  +1.48000000000000007105e+001
  +1.50000000000000000000e+001
  +1.51999999999999992895e+001
  +1.54000000000000003553e+001
  +1.55999999999999996447e+001
  +1.58000000000000007105e+001
  +1.60000000000000000000e+001
  +1.61999999999999992895e+001
  +1.63999999999999985789e+001
  +1.66000000000000014211e+001
  +1.68000000000000007105e+001
  +1.70000000000000000000e+001
  +1.71999999999999992895e+001
  +1.73999999999999985789e+001
  +1.76000000000000014211e+001
  +1.78000000000000007105e+001
  +1.80000000000000000000e+001
  +1.81999999999999992895e+001
  +1.83999999999999985789e+001
  +1.86000000000000014211e+001
  +1.88000000000000007105e+001
  +1.90000000000000000000e+001
  +1.91999999999999992895e+001
  +1.93999999999999985789e+001
  +1.96000000000000014211e+001
  +1.98000000000000007105e+001
  +2.00000000000000000000e+001
</indep>
<dep Curva Versus.0001>
  +0.00000000000000000000e+000
  +1.58774483873185302276e-005
  +3.05358118442450917479e-003
  +8.04324884064795964100e-002
  +2.39520875099186597579e-001
  +4.18587301801619848796e-001
  +6.04785289238682577384e-001
  +7.94547567076252181373e-001
  +9.86430651170054906274e-001
  +1.17971506853599583664e+000
  +1.37399234045153995076e+000
  +1.56900894858617867555e+000
  +1.76459701294322979237e+000
  +1.96063974491720105497e+000
  +2.15705268648070225268e+000
  +2.35377281844815744449e+000
  +2.55075188984767242673e+000
  +2.74795214950212729477e+000
  +2.94534351297509111589e+000
  +3.14290162297476260989e+000
  +3.34060648560731010548e+000
  +3.53844148908608380211e+000
  +3.73639268318258199741e+000
  +3.93444824057564357389e+000
  +4.13259804770803107488e+000
  +4.33083338954158403311e+000
  +4.52914670351421033700e+000
  +4.72753138525518235014e+000
  +4.92598163353417639598e+000
  +5.12449232531467124829e+000
  +5.32305891416701815189e+000
  +5.52167734699387846575e+000
  +5.72034399524857217756e+000
  +5.91905559772367340088e+000
  +6.11780921265259447495e+000
  +6.31660217736361495611e+000
  +6.51543207410237545929e+000
  +6.71429670092552921545e+000
  +6.91319404678929760877e+000
  +7.11212227012829067974e+000
  +7.31107968035445576760e+000
  +7.51006472181111384145e+000
  +7.70907595980172999361e+000
  +7.90811206837990621210e+000
  +8.10717181964078470457e+000
  +8.30625407429769246903e+000
  +8.50535777336363629786e+000
  +8.70448193078570575665e+000
  +8.90362562690430969781e+000
  +9.10278800262914877806e+000
  +9.30196825423958451040e+000
  +9.50116562873073888795e+000
  +9.70037941963835237402e+000
  +9.89960896328411266154e+000
  +1.00988536353920306254e+001
  +1.02981128480325025976e+001
  +1.04973860468568602755e+001
  +1.06966727085898138938e+001
  +1.08959723387515268200e+001
  +1.10952844695845982415e+001
  +1.12946086581640550150e+001
  +1.14939444846715677073e+001
  +1.16932915508168626673e+001
  +1.18926494783916183451e+001
  +1.20920179079427114743e+001
  +1.22913964975531690982e+001
  +1.24907849217205768610e+001
  +1.26901828703236212448e+001
  +1.28895900476687383929e+001
  +1.30890061716094088240e+001
  +1.32884309727316214378e+001
  +1.34878641935996022028e+001
  +1.36873055880566045772e+001
  +1.38867549205758997743e+001
  +1.40862119656577782223e+001
  +1.42856765072687217355e+001
  +1.44851483383191759202e+001
  +1.46846272601768959021e+001
  +1.48841130822128260291e+001
  +1.50836056213771527723e+001
  +1.52831047018029941853e+001
  +1.54826101544356422579e+001
  +1.56821218166854379206e+001
  +1.58816395321024383946e+001
  +1.60811631500713154708e+001
  +1.62806925255249375084e+001
  +1.64802275186753348635e+001
  +1.66797679947607377926e+001
  +1.68793138238075997037e+001
  +1.70788648804065346098e+001
  +1.72784210435012184348e+001
  +1.74779821961892807280e+001
  +1.76775482255345508520e+001
  +1.78771190223897207261e+001
  +1.80766944812288024025e+001
  +1.82762744999887765118e+001
  +1.84758589799197814330e+001
  +1.86754478254433280426e+001
  +1.88750409440179822695e+001
  +1.90746382460121068902e+001
  +1.92742396445831971619e+001
</dep>
<dep Io v1>
  +0.00000000000000000000e+000
  +1.58774483873185302276e-005
  +3.05358118442450917479e-003
  +8.04324884064795964100e-002
  +2.39520875099186597579e-001
  +4.18587301801619848796e-001
  +6.04785289238682577384e-001
  +7.94547567076252181373e-001
  +9.86430651170054906274e-001
  +1.17971506853599583664e+000
  +1.37399234045153995076e+000
  +1.56900894858617867555e+000
  +1.76459701294322979237e+000
  +1.96063974491720105497e+000
  +2.15705268648070225268e+000
  +2.35377281844815744449e+000
  +2.55075188984767242673e+000
  +2.74795214950212729477e+000
  +2.94534351297509111589e+000
  +3.14290162297476260989e+000
  +3.34060648560731010548e+000
  +3.53844148908608380211e+000
  +3.73639268318258199741e+000
  +3.93444824057564357389e+000
  +4.13259804770803107488e+000
  +4.33083338954158403311e+000
  +4.52914670351421033700e+000
  +4.72753138525518235014e+000
  +4.92598163353417639598e+000
  +5.12449232531467124829e+000
  +5.32305891416701815189e+000
  +5.52167734699387846575e+000
  +5.72034399524857217756e+000
  +5.91905559772367340088e+000
  +6.11780921265259447495e+000
  +6.31660217736361495611e+000
  +6.51543207410237545929e+000
  +6.71429670092552921545e+000
  +6.91319404678929760877e+000
  +7.11212227012829067974e+000
  +7.31107968035445576760e+000
  +7.51006472181111384145e+000
  +7.70907595980172999361e+000
  +7.90811206837990621210e+000
  +8.10717181964078470457e+000
  +8.30625407429769246903e+000
  +8.50535777336363629786e+000
  +8.70448193078570575665e+000
  +8.90362562690430969781e+000
  +9.10278800262914877806e+000
  +9.30196825423958451040e+000
  +9.50116562873073888795e+000
  +9.70037941963835237402e+000
  +9.89960896328411266154e+000
  +1.00988536353920306254e+001
  +1.02981128480325025976e+001
  +1.04973860468568602755e+001
  +1.06966727085898138938e+001
  +1.08959723387515268200e+001
  +1.10952844695845982415e+001
  +1.12946086581640550150e+001
  +1.14939444846715677073e+001
  +1.16932915508168626673e+001
  +1.18926494783916183451e+001
  +1.20920179079427114743e+001
  +1.22913964975531690982e+001
  +1.24907849217205768610e+001
  +1.26901828703236212448e+001
  +1.28895900476687383929e+001
  +1.30890061716094088240e+001
  +1.32884309727316214378e+001
  +1.34878641935996022028e+001
  +1.36873055880566045772e+001
  +1.38867549205758997743e+001
  +1.40862119656577782223e+001
  +1.42856765072687217355e+001
  +1.44851483383191759202e+001
  +1.46846272601768959021e+001
  +1.48841130822128260291e+001
  +1.50836056213771527723e+001
  +1.52831047018029941853e+001
  +1.54826101544356422579e+001
  +1.56821218166854379206e+001
  +1.58816395321024383946e+001
  +1.60811631500713154708e+001
  +1.62806925255249375084e+001
  +1.64802275186753348635e+001
  +1.66797679947607377926e+001
  +1.68793138238075997037e+001
  +1.70788648804065346098e+001
  +1.72784210435012184348e+001
  +1.74779821961892807280e+001
  +1.76775482255345508520e+001
  +1.78771190223897207261e+001
  +1.80766944812288024025e+001
  +1.82762744999887765118e+001
  +1.84758589799197814330e+001
  +1.86754478254433280426e+001
  +1.88750409440179822695e+001
  +1.90746382460121068902e+001
  +1.92742396445831971619e+001
</dep>
<dep Vd v1>
  +0.00000000000000000000e+000
  +1.99984122551612686358e-001
  +3.96946418815575519101e-001
  +5.19567511593520325874e-001
  +5.60479124900813419075e-001
  +5.81412698198380151204e-001
  +5.95214710761317378207e-001
  +6.05452432923747729809e-001
  +6.13569348829945293566e-001
  +6.20284931464004207768e-001
  +6.26007659548460049237e-001
  +6.30991051413821613103e-001
  +6.35402987056770229835e-001
  +6.39360255082799366910e-001
  +6.42947313519297902751e-001
  +6.46227181551842555507e-001
  +6.49248110152327750910e-001
  +6.52047850497872394371e-001
  +6.54656487024908750882e-001
  +6.57098377025237545546e-001
  +6.59393514392689672476e-001
  +6.61558510913916486551e-001
  +6.63607316817418357857e-001
  +6.65551759424356070838e-001
  +6.67401952291968081354e-001
  +6.69166610458416522000e-001
  +6.70853296485790617787e-001
  +6.72468614744818338202e-001
  +6.74018366465822693634e-001
  +6.75507674685328018960e-001
  +6.76941085832981293002e-001
  +6.78322653006122155972e-001
  +6.79656004751428288735e-001
  +6.80944402276326576917e-001
  +6.82190787347405458441e-001
  +6.83397822636384710826e-001
  +6.84567925897625051412e-001
  +6.85703299074471028796e-001
  +6.86805953210702813116e-001
  +6.87877729871708920584e-001
  +6.88920319645544232401e-001
  +6.89935278188886003115e-001
  +6.90924040198270139612e-001
  +6.91887931620093321605e-001
  +6.92828180359217449258e-001
  +6.93745925702307975058e-001
  +6.94642226636362880576e-001
  +6.95518069214295375779e-001
  +6.96374373095689391810e-001
  +6.97211997370852376577e-001
  +6.98031745760415600621e-001
  +6.98834371269261400705e-001
  +6.99620580361648425338e-001
  +7.00391036715887094211e-001
  +7.01146364607971084304e-001
  +7.01887151967497291416e-001
  +7.02613953143139902124e-001
  +7.03327291410186905551e-001
  +7.04027661248473046740e-001
  +7.04715530415402580111e-001
  +7.05391341835943763705e-001
  +7.06055515328431249067e-001
  +7.06708449183137465965e-001
  +7.07350521608381188621e-001
  +7.07982092057290124387e-001
  +7.08603502446831789996e-001
  +7.09215078279424093743e-001
  +7.09817129676379110492e-001
  +7.10409952331261473901e-001
  +7.10993828390590998367e-001
  +7.11569027268378784257e-001
  +7.12135806400397419758e-001
  +7.12694411943394889875e-001
  +7.13245079424101091625e-001
  +7.13788034342222710293e-001
  +7.14323492731277265300e-001
  +7.14851661680822481060e-001
  +7.15372739823103898082e-001
  +7.15886917787174503758e-001
  +7.16394378622848715388e-001
  +7.16895298197005925722e-001
  +7.17389845564357364616e-001
  +7.17878183314560769368e-001
  +7.18360467897563470530e-001
  +7.18836849928685239774e-001
  +7.19307474475063046704e-001
  +7.19772481324665203140e-001
  +7.20232005239263339824e-001
  +7.20686176192404603924e-001
  +7.21135119593467099897e-001
  +7.21578956498782120299e-001
  +7.22017803810718894475e-001
  +7.22451774465448726126e-001
  +7.22880977610278585566e-001
  +7.23305518771197752947e-001
  +7.23725500011222822039e-001
  +7.24141020080218078547e-001
  +7.24552174556669981165e-001
  +7.24959055982019595632e-001
  +7.25361753987891932915e-001
  +7.25760355416803060180e-001
</dep>
<dep Vd.V v1>
  +0.00000000000000000000e+000
  +1.99984122551612686358e-001
  +3.96946418815575519101e-001
  +5.19567511593520325874e-001
  +5.60479124900813419075e-001
  +5.81412698198380151204e-001
  +5.95214710761317378207e-001
  +6.05452432923747729809e-001
  +6.13569348829945293566e-001
  +6.20284931464004207768e-001
  +6.26007659548460049237e-001
  +6.30991051413821613103e-001
  +6.35402987056770229835e-001
  +6.39360255082799366910e-001
  +6.42947313519297902751e-001
  +6.46227181551842555507e-001
  +6.49248110152327750910e-001
  +6.52047850497872394371e-001
  +6.54656487024908750882e-001
  +6.57098377025237545546e-001
  +6.59393514392689672476e-001
  +6.61558510913916486551e-001
  +6.63607316817418357857e-001
  +6.65551759424356070838e-001
  +6.67401952291968081354e-001
  +6.69166610458416522000e-001
  +6.70853296485790617787e-001
  +6.72468614744818338202e-001
  +6.74018366465822693634e-001
  +6.75507674685328018960e-001
  +6.76941085832981293002e-001
  +6.78322653006122155972e-001
  +6.79656004751428288735e-001
  +6.80944402276326576917e-001
  +6.82190787347405458441e-001
  +6.83397822636384710826e-001
  +6.84567925897625051412e-001
  +6.85703299074471028796e-001
  +6.86805953210702813116e-001
  +6.87877729871708920584e-001
  +6.88920319645544232401e-001
  +6.89935278188886003115e-001
  +6.90924040198270139612e-001
  +6.91887931620093321605e-001
  +6.92828180359217449258e-001
  +6.93745925702307975058e-001
  +6.94642226636362880576e-001
  +6.95518069214295375779e-001
  +6.96374373095689391810e-001
  +6.97211997370852376577e-001
  +6.98031745760415600621e-001
  +6.98834371269261400705e-001
  +6.99620580361648425338e-001
  +7.00391036715887094211e-001
  +7.01146364607971084304e-001
  +7.01887151967497291416e-001
  +7.02613953143139902124e-001
  +7.03327291410186905551e-001
  +7.04027661248473046740e-001
  +7.04715530415402580111e-001
  +7.05391341835943763705e-001
  +7.06055515328431249067e-001
  +7.06708449183137465965e-001
  +7.07350521608381188621e-001
  +7.07982092057290124387e-001
  +7.08603502446831789996e-001
  +7.09215078279424093743e-001
  +7.09817129676379110492e-001
  +7.10409952331261473901e-001
  +7.10993828390590998367e-001
  +7.11569027268378784257e-001
  +7.12135806400397419758e-001
  +7.12694411943394889875e-001
  +7.13245079424101091625e-001
  +7.13788034342222710293e-001
  +7.14323492731277265300e-001
  +7.14851661680822481060e-001
  +7.15372739823103898082e-001
  +7.15886917787174503758e-001
  +7.16394378622848715388e-001
  +7.16895298197005925722e-001
  +7.17389845564357364616e-001
  +7.17878183314560769368e-001
  +7.18360467897563470530e-001
  +7.18836849928685239774e-001
  +7.19307474475063046704e-001
  +7.19772481324665203140e-001
  +7.20232005239263339824e-001
  +7.20686176192404603924e-001
  +7.21135119593467099897e-001
  +7.21578956498782120299e-001
  +7.22017803810718894475e-001
  +7.22451774465448726126e-001
  +7.22880977610278585566e-001
  +7.23305518771197752947e-001
  +7.23725500011222822039e-001
  +7.24141020080218078547e-001
  +7.24552174556669981165e-001
  +7.24959055982019595632e-001
  +7.25361753987891932915e-001
  +7.25760355416803060180e-001
</dep>
<dep V1.I v1>
  +0.00000000000000000000e+000
  -1.58774483873185315775e-008
  -3.05358118442450899522e-006
  -8.04324884064795984700e-005
  -2.39520875099186593242e-004
  -4.18587301801619823642e-004
  -6.04785289238682528812e-004
  -7.94547567076252215200e-004
  -9.86430651170054888927e-004
  -1.17971506853599590603e-003
  -1.37399234045153988484e-003
  -1.56900894858617856453e-003
  -1.76459701294322973165e-003
  -1.96063974491720097171e-003
  -2.15705268648070215901e-003
  -2.35377281844815740633e-003
  -2.55075188984767251693e-003
  -2.74795214950212737803e-003
  -2.94534351297509123038e-003
  -3.14290162297476251621e-003
  -3.34060648560731031018e-003
  -3.53844148908608394088e-003
  -3.73639268318258195925e-003
  -3.93444824057564371961e-003
  -4.13259804770803144958e-003
  -4.33083338954158396372e-003
  -4.52914670351420994843e-003
  -4.72753138525518201707e-003
  -4.92598163353417679150e-003
  -5.12449232531467149115e-003
  -5.32305891416701842944e-003
  -5.52167734699387808411e-003
  -5.72034399524857205266e-003
